TFF04 382:088 SEGGER J-Link V6.32h Log File (0001ms, 1879ms total)
TFF04 382:088 DLL Compiled: Jul  5 2018 18:11:19 (0001ms, 1879ms total)
TFF04 382:088 Logging started @ 2019-02-01 11:30 (0001ms, 1879ms total)
TFF04 382:089 JLINK_SetWarnOutHandler(...) (0000ms, 1879ms total)
TFF04 382:089 JLINK_OpenEx(...)
Firmware: Silicon Labs J-Link OB compiled Sep  6 2017 12:03:18
Hardware: V1.00
S/N: 440124497
Feature(s): RDI
TELNET listener socket opened on port 19021Device "EFM32GG11B820F2048" selected.WEBSRV 
Starting webserver (0014ms, 1893ms total)
TFF04 382:089 WEBSRV Webserver running on local port 19080 (0014ms, 1893ms total)
TFF04 382:089   returns O.K. (0014ms, 1893ms total)
TFF04 382:103 JLINK_GetEmuCaps()  returns 0xB8EA5A33 (0000ms, 1893ms total)
TFF04 382:104 JLINK_TIF_GetAvailable(...) (0000ms, 1893ms total)
TFF04 382:104 JLINK_SetErrorOutHandler(...) (0000ms, 1893ms total)
TFF04 382:104 JLINK_ExecCommand("ProjectFile = "C:\mbed-cli\workspace\giant_gecko\mbed-os-gg11-Si7201\JLinkSettings.ini"", ...). Device "EFM32GG11B820F2048" selected.  returns 0x00 (0006ms, 1899ms total)
TFF04 382:110 JLINK_ExecCommand("Device = EFM32GG11B820F2048GL192", ...). Device "EFM32GG11B820F2048" selected.  returns 0x00 (0003ms, 1902ms total)
TFF04 382:113 JLINK_ExecCommand("DisableConnectionTimeout", ...).   returns 0x01 (0000ms, 1902ms total)
TFF04 382:113 JLINK_GetHardwareVersion()  returns 0x2710 (0000ms, 1902ms total)
TFF04 382:113 JLINK_GetDLLVersion()  returns 63208 (0000ms, 1902ms total)
TFF04 382:113 JLINK_GetFirmwareString(...) (0000ms, 1902ms total)
TFF04 382:113 JLINK_GetDLLVersion()  returns 63208 (0000ms, 1902ms total)
TFF04 382:113 JLINK_GetCompileDateTime() (0000ms, 1902ms total)
TFF04 382:113 JLINK_GetFirmwareString(...) (0000ms, 1902ms total)
TFF04 382:113 JLINK_GetHardwareVersion()  returns 0x2710 (0000ms, 1902ms total)
TFF04 382:113 JLINK_TIF_Select(JLINKARM_TIF_JTAG)  returns 0x00 (0001ms, 1903ms total)
TFF04 382:114 JLINK_SetSpeed(5000) (0000ms, 1903ms total)
TFF04 382:114 JLINK_GetIdData(...) >0x48 JTAG> >0x2F8 JTAG>TotalIRLen = 4, IRPrint = 0x01 >0x30 JTAG> >0x30 JTAG>JTAG chain detection found 1 devices: #0 Id: 0x4BA00477, IRLen: 04, CoreSight JTAG-DP >0x10 JTAG> >0x30 JTAG> >0x10 JTAG> >0x30 JTAG> >0x30 JTAG> >0x10 JTAG> >0x30 JTAG> >0x10 JTAG> >0x30 JTAG> >0x10 JTAG> >0x30 JTAG> >0x10 JTAG> >0x30 JTAG> >0x2F8 JTAG>TotalIRLen = 4, IRPrint = 0x01 >0x30 JTAG> >0x30 JTAG>JTAG chain detection found 1 devices: #0 Id: 0x4BA00477, IRLen: 04, CoreSight JTAG-DP
Scanning AP map to find all available APs >0x78 JTAG> >0x48 JTAG> >0x40 JTAG> >0x40 JTAG> >0x48 JTAG> >0x40 JTAG>AP[1]: Stopped AP scan as end of AP map has been reachedAP[0]: AHB-AP (IDR: 0x24770011)Iterating through AP map to find AHB-AP to use >0x78 JTAG> >0x48 JTAG> >0x48 JTAG> >0x78 JTAG> >0x40 JTAG> >0x30 JTAG> >0x40 JTAG> >0x40 JTAG>AP[0]: Core foundAP[0]: AHB-AP ROM base: 0xE00FF000 >0x40 JTAG> >0x40 JTAG> >0x30 JTAG> >0x40 JTAG> >0x40 JTAG>CPUID register: 0x410FC241. Implementer code: 0x41 (ARM)
Found Cortex-M4 r0p1, Little endian. -- CPU_ReadMem(4 bytes @ 0xE000EDF0) -- CPU_WriteMem(4 bytes @ 0xE000EDF0) -- CPU_ReadMem(4 bytes @ 0xE0002000)FPUnit: 6 code (BP) slots and 2 literal slots -- CPU_ReadMem(4 bytes @ 0xE000EDFC) -- CPU_WriteMem(4 bytes @ 0xE000EDFC) -- CPU_ReadMem(4 bytes @ 0xE0001000) -- CPU_WriteMem(4 bytes @ 0xE0001000) -- CPU_ReadMem(4 bytes @ 0xE000ED88) -- CPU_WriteMem(4 bytes @ 0xE000ED88) -- CPU_ReadMem(4 bytes @ 0xE000ED88) -- CPU_WriteMem(4 bytes @ 0xE000ED88)
CoreSight components:ROMTbl[0] @ E00FF000 -- CPU_ReadMem(16 bytes @ 0xE00FF000) -- CPU_ReadMem(16 bytes @ 0xE000EFF0) -- CPU_ReadMem(16 bytes @ 0xE000EFE0)ROMTbl[0][0]: E000E000, CID: B105E00D, PID: 000BB00C SCS-M7 -- CPU_ReadMem(16 bytes @ 0xE0001FF0) -- CPU_ReadMem(16 bytes @ 0xE0001FE0)ROMTbl[0][1]: E0001000, CID: B105E00D, PID: 003BB002 DWT -- CPU_ReadMem(16 bytes @ 0xE0002FF0) -- CPU_ReadMem(16 bytes @ 0xE0002FE0)ROMTbl[0][2]: E0002000, CID: B105E00D, PID: 002BB003 FPB
 -- CPU_ReadMem(16 bytes @ 0xE0000FF0) -- CPU_ReadMem(16 bytes @ 0xE0000FE0)ROMTbl[0][3]: E0000000, CID: B105E00D, PID: 003BB001 ITM -- CPU_ReadMem(16 bytes @ 0xE00FF010) -- CPU_ReadMem(16 bytes @ 0xE0040FF0) -- CPU_ReadMem(16 bytes @ 0xE0040FE0)ROMTbl[0][4]: E0040000, CID: B105900D, PID: 003BB923 TPIU-Lite -- CPU_ReadMem(16 bytes @ 0xE0041FF0) -- CPU_ReadMem(16 bytes @ 0xE0041FE0)ROMTbl[0][5]: E0041000, CID: B105900D, PID: 000BB925 ETM ScanLen=4 NumDevices=1 aId[0]=0x4BA00477 aIrRead[0]=0 aScanLen[0]=0
 aScanRead[0]=0 (0040ms, 1943ms total)
TFF04 382:154 JLINK_JTAG_GetDeviceID(DeviceIndex = 0)  returns 0x4BA00477 (0000ms, 1943ms total)
TFF04 382:154 JLINK_JTAG_GetDeviceInfo(DeviceIndex = 0)  returns 0x00 (0000ms, 1943ms total)
TFF04 382:154 JLINK_GetDLLVersion()  returns 63208 (0001ms, 1944ms total)
TFF04 382:155 JLINK_CORE_GetFound()  returns 0xE0000FF (0000ms, 1944ms total)
TFF04 382:155 JLINK_GetDebugInfo(0x100 = JLINKARM_ROM_TABLE_ADDR_INDEX) -- Value=0xE00FF000  returns 0x00 (0000ms, 1944ms total)
TFF04 382:155 JLINK_GetDebugInfo(0x100 = JLINKARM_ROM_TABLE_ADDR_INDEX) -- Value=0xE00FF000  returns 0x00 (0000ms, 1944ms total)
TFF04 382:155 JLINK_GetDebugInfo(0x101 = JLINKARM_DEBUG_INFO_ETM_ADDR_INDEX) -- Value=0xE0041000  returns 0x00 (0000ms, 1944ms total)
TFF04 382:155 JLINK_ReadMemEx(0xE0041FD0, 0x0020 Bytes, ..., Flags = 0x02000004) -- CPU_ReadMem(32 bytes @ 0xE0041FD0) - Data: 04 00 00 00 00 00 00 00 00 00 00 00 00 00 00 00 ...  returns 0x20 (0001ms, 1945ms total)
TFF04 382:156 JLINK_GetDebugInfo(0x102 = JLINKARM_DEBUG_INFO_MTB_ADDR_INDEX) -- Value=0x00000000  returns 0x00 (0000ms, 1945ms total)
TFF04 382:156 JLINK_GetDebugInfo(0x103 = JLINKARM_DEBUG_INFO_TPIU_ADDR_INDEX) -- Value=0xE0040000  returns 0x00 (0000ms, 1945ms total)
TFF04 382:156 JLINK_GetDebugInfo(0x104 = JLINKARM_DEBUG_INFO_ITM_ADDR_INDEX) -- Value=0xE0000000  returns 0x00 (0000ms, 1945ms total)
TFF04 382:156 JLINK_GetDebugInfo(0x105 = JLINKARM_DEBUG_INFO_DWT_ADDR_INDEX) -- Value=0xE0001000  returns 0x00 (0000ms, 1945ms total)
TFF04 382:156 JLINK_GetDebugInfo(0x106 = JLINKARM_DEBUG_INFO_FPB_ADDR_INDEX) -- Value=0xE0002000  returns 0x00 (0000ms, 1945ms total)
TFF04 382:156 JLINK_GetDebugInfo(0x107 = JLINKARM_DEBUG_INFO_NVIC_ADDR_INDEX) -- Value=0xE000E000  returns 0x00 (0000ms, 1945ms total)
TFF04 382:156 JLINK_GetDebugInfo(0x10C = JLINKARM_DEBUG_INFO_DBG_ADDR_INDEX) -- Value=0xE000EDF0  returns 0x00 (0000ms, 1945ms total)
TFF04 382:156 JLINK_GetDebugInfo(0x01 = Unknown) -- Value=0x00000001  returns 0x00 (0000ms, 1945ms total)
TFF04 382:156 JLINK_ReadMemU32(0xE000ED00, 0x0001 Items, ...) -- CPU_ReadMem(4 bytes @ 0xE000ED00) - Data: 41 C2 0F 41  returns 0x01 (0001ms, 1946ms total)
TFF04 382:157 JLINK_GetDebugInfo(0x10F = JLINKARM_DEBUG_INFO_HAS_CORTEX_M_SECURITY_EXT_INDEX) -- Value=0x00000000  returns 0x00 (0000ms, 1946ms total)
TFF04 382:157 JLINK_SetResetType(JLINKARM_CM3_RESET_TYPE_NORMAL)  returns JLINKARM_CM3_RESET_TYPE_NORMAL (0000ms, 1946ms total)
TFF04 382:157 JLINK_Reset() -- CPU is running -- CPU_WriteMem(4 bytes @ 0xE000EDF0) -- CPU is running -- CPU_WriteMem(4 bytes @ 0xE000EDFC)Reset: Halt core after reset via DEMCR.VC_CORERESET.Reset: Reset device via AIRCR.SYSRESETREQ. -- CPU is running -- CPU_WriteMem(4 bytes @ 0xE000ED0C) -- CPU_ReadMem(4 bytes @ 0xE000EDF0) -- CPU_ReadMem(4 bytes @ 0xE000EDF0) -- CPU is running -- CPU_WriteMem(4 bytes @ 0xE000EDF0) -- CPU is running -- CPU_WriteMem(4 bytes @ 0xE000EDFC)
 -- CPU_ReadMem(4 bytes @ 0xE000EDF0) -- CPU_WriteMem(4 bytes @ 0xE000EDFC) -- CPU_WriteMem(4 bytes @ 0xE0001028) -- CPU_WriteMem(4 bytes @ 0xE0001038) -- CPU_WriteMem(4 bytes @ 0xE0001048) -- CPU_WriteMem(4 bytes @ 0xE0001058) -- CPU_WriteMem(4 bytes @ 0xE0002000) -- CPU_ReadMem(4 bytes @ 0xE000EDFC) -- CPU_ReadMem(4 bytes @ 0xE0001000) (0077ms, 2023ms total)
TFF04 382:234 JLINK_ReadReg(R15 (PC))  returns 0x0FE10000 (0000ms, 2023ms total)
TFF04 382:234 JLINK_ReadReg(XPSR)  returns 0x01000000 (0000ms, 2023ms total)
TFF04 382:234 JLINK_Halt()  returns 0x00 (0000ms, 2023ms total)
TFF04 382:234 JLINK_ReadMemU32(0xE000EDF0, 0x0001 Items, ...) -- CPU_ReadMem(4 bytes @ 0xE000EDF0) - Data: 03 00 03 00  returns 0x01 (0001ms, 2024ms total)
TFF04 382:235 JLINK_WriteU32(0xE000EDF0, 0xA05F0003) -- CPU_WriteMem(4 bytes @ 0xE000EDF0)  returns 0x00 (0001ms, 2025ms total)
TFF04 382:236 JLINK_WriteU32(0xE000EDFC, 0x01000000) -- CPU_WriteMem(4 bytes @ 0xE000EDFC)  returns 0x00 (0000ms, 2025ms total)
TFF04 382:236 JLINK_GetHWStatus(...)  returns 0x00 (0001ms, 2026ms total)
TFF04 382:237 JLINK_GetNumBPUnits(Type = 0xFFFFFF00)  returns 0x06 (0000ms, 2026ms total)
TFF04 382:237 JLINK_GetNumBPUnits(Type = 0xF0)  returns 0x2000 (0000ms, 2026ms total)
TFF04 382:237 JLINK_GetNumWPUnits()  returns 0x04 (0000ms, 2026ms total)
TFF04 382:237 JLINK_GetSpeed()  returns 0x12C0 (0000ms, 2026ms total)
TFF04 382:237 JLINK_ReadMemU32(0xE000E004, 0x0001 Items, ...) -- CPU_ReadMem(4 bytes @ 0xE000E004) - Data: 02 00 00 00  returns 0x01 (0001ms, 2027ms total)
TFF04 382:238 JLINK_ReadMemU32(0xE000E004, 0x0001 Items, ...) -- CPU_ReadMem(4 bytes @ 0xE000E004) - Data: 02 00 00 00  returns 0x01 (0001ms, 2028ms total)
TFF04 382:239 JLINK_WriteMemEx(0xE0001000, 0x001C Bytes, ..., Flags = 0x02000004) - Data: 01 00 00 00 00 00 00 00 00 00 00 00 00 00 00 00 ... -- CPU_WriteMem(28 bytes @ 0xE0001000)  returns 0x1C (0002ms, 2030ms total)
TFF04 382:241 JLINK_ReadReg(R15 (PC))  returns 0x0FE10000 (0000ms, 2030ms total)
TFF04 382:241 JLINK_ReadReg(XPSR)  returns 0x01000000 (0000ms, 2030ms total)
TFF04 382:991 JLINK_SetResetType(JLINKARM_CM3_RESET_TYPE_NORMAL)  returns JLINKARM_CM3_RESET_TYPE_NORMAL (0000ms, 2030ms total)
TFF04 382:991 JLINK_Reset() -- CPU_WriteMem(4 bytes @ 0xE000EDF0) -- CPU_WriteMem(4 bytes @ 0xE000EDFC)Reset: Halt core after reset via DEMCR.VC_CORERESET.Reset: Reset device via AIRCR.SYSRESETREQ. -- CPU_WriteMem(4 bytes @ 0xE000ED0C) -- CPU_ReadMem(4 bytes @ 0xE000EDF0) -- CPU_ReadMem(4 bytes @ 0xE000EDF0) -- CPU_WriteMem(4 bytes @ 0xE000EDF0) -- CPU_WriteMem(4 bytes @ 0xE000EDFC) -- CPU_ReadMem(4 bytes @ 0xE000EDF0) -- CPU_WriteMem(4 bytes @ 0xE000EDFC) -- CPU_WriteMem(4 bytes @ 0xE0001028)
 -- CPU_WriteMem(4 bytes @ 0xE0001038) -- CPU_WriteMem(4 bytes @ 0xE0001048) -- CPU_WriteMem(4 bytes @ 0xE0001058) -- CPU_WriteMem(4 bytes @ 0xE0002000) -- CPU_ReadMem(4 bytes @ 0xE000EDFC) -- CPU_ReadMem(4 bytes @ 0xE0001000) (0077ms, 2107ms total)
TFF04 383:068 JLINK_ReadReg(R15 (PC))  returns 0x0FE10000 (0000ms, 2107ms total)
TFF04 383:068 JLINK_ReadReg(XPSR)  returns 0x01000000 (0000ms, 2107ms total)
TFF04 383:068 JLINK_ReadReg(R0)  returns 0x00000000 (0000ms, 2107ms total)
TFF04 383:068 JLINK_ReadReg(R1)  returns 0x00000000 (0000ms, 2107ms total)
TFF04 383:068 JLINK_ReadReg(R2)  returns 0x00000000 (0000ms, 2107ms total)
TFF04 383:068 JLINK_ReadReg(R3)  returns 0x00000000 (0000ms, 2107ms total)
TFF04 383:068 JLINK_ReadReg(R4)  returns 0x00000000 (0000ms, 2107ms total)
TFF04 383:068 JLINK_ReadReg(R5)  returns 0x00000000 (0000ms, 2107ms total)
TFF04 383:068 JLINK_ReadReg(R6)  returns 0x00000000 (0000ms, 2107ms total)
TFF04 383:068 JLINK_ReadReg(R7)  returns 0x00000000 (0000ms, 2107ms total)
TFF04 383:068 JLINK_ReadReg(R8)  returns 0x00000000 (0000ms, 2107ms total)
TFF04 383:068 JLINK_ReadReg(R9)  returns 0x00000000 (0000ms, 2107ms total)
TFF04 383:068 JLINK_ReadReg(R10)  returns 0x00000000 (0000ms, 2107ms total)
TFF04 383:068 JLINK_ReadReg(R11)  returns 0x00000000 (0000ms, 2107ms total)
TFF04 383:068 JLINK_ReadReg(R12)  returns 0x00000000 (0000ms, 2107ms total)
TFF04 383:068 JLINK_ReadReg(R13 (SP))  returns 0x20000400 (0000ms, 2107ms total)
TFF04 383:068 JLINK_ReadReg(R14)  returns 0xFFFFFFFF (0000ms, 2107ms total)
TFF04 383:068 JLINK_ReadReg(R15 (PC))  returns 0x0FE10000 (0000ms, 2107ms total)
TFF04 383:068 JLINK_ReadReg(XPSR)  returns 0x01000000 (0000ms, 2107ms total)
TFF04 383:068 JLINK_ReadReg(MSP)  returns 0x20000400 (0000ms, 2107ms total)
TFF04 383:068 JLINK_ReadReg(PSP)  returns 0x00000000 (0000ms, 2107ms total)
TFF04 383:068 JLINK_ReadReg(CFBP)  returns 0x00000000 (0000ms, 2107ms total)
TFF04 383:068 JLINK_ReadReg(FPSCR)  returns 0x00000000 (0012ms, 2119ms total)
TFF04 383:080 JLINK_ReadReg(FPS0)  returns 0x00000000 (0000ms, 2119ms total)
TFF04 383:080 JLINK_ReadReg(FPS1)  returns 0x00000000 (0000ms, 2119ms total)
TFF04 383:080 JLINK_ReadReg(FPS2)  returns 0x00000000 (0000ms, 2119ms total)
TFF04 383:080 JLINK_ReadReg(FPS3)  returns 0x00000000 (0000ms, 2119ms total)
TFF04 383:080 JLINK_ReadReg(FPS4)  returns 0x00000000 (0000ms, 2119ms total)
TFF04 383:080 JLINK_ReadReg(FPS5)  returns 0x00000000 (0000ms, 2119ms total)
TFF04 383:080 JLINK_ReadReg(FPS6)  returns 0x00000000 (0000ms, 2119ms total)
TFF04 383:080 JLINK_ReadReg(FPS7)  returns 0x00000000 (0000ms, 2119ms total)
TFF04 383:080 JLINK_ReadReg(FPS8)  returns 0x00000000 (0000ms, 2119ms total)
TFF04 383:080 JLINK_ReadReg(FPS9)  returns 0x00000000 (0000ms, 2119ms total)
TFF04 383:080 JLINK_ReadReg(FPS10)  returns 0x00000000 (0000ms, 2119ms total)
TFF04 383:080 JLINK_ReadReg(FPS11)  returns 0x00000000 (0000ms, 2119ms total)
TFF04 383:080 JLINK_ReadReg(FPS12)  returns 0x00000000 (0000ms, 2119ms total)
TFF04 383:080 JLINK_ReadReg(FPS13)  returns 0x00000000 (0000ms, 2119ms total)
TFF04 383:080 JLINK_ReadReg(FPS14)  returns 0x00000000 (0000ms, 2119ms total)
TFF04 383:080 JLINK_ReadReg(FPS15)  returns 0x00000000 (0000ms, 2119ms total)
TFF04 383:080 JLINK_ReadReg(FPS16)  returns 0x00000000 (0000ms, 2119ms total)
TFF04 383:080 JLINK_ReadReg(FPS17)  returns 0x00000000 (0000ms, 2119ms total)
TFF04 383:080 JLINK_ReadReg(FPS18)  returns 0x00000000 (0000ms, 2119ms total)
TFF04 383:080 JLINK_ReadReg(FPS19)  returns 0x00000000 (0000ms, 2119ms total)
TFF04 383:080 JLINK_ReadReg(FPS20)  returns 0x00000000 (0000ms, 2119ms total)
TFF04 383:080 JLINK_ReadReg(FPS21)  returns 0x00000000 (0000ms, 2119ms total)
TFF04 383:080 JLINK_ReadReg(FPS22)  returns 0x00000000 (0000ms, 2119ms total)
TFF04 383:080 JLINK_ReadReg(FPS23)  returns 0x00000000 (0000ms, 2119ms total)
TFF04 383:080 JLINK_ReadReg(FPS24)  returns 0x00000000 (0000ms, 2119ms total)
TFF04 383:080 JLINK_ReadReg(FPS25)  returns 0x00000000 (0000ms, 2119ms total)
TFF04 383:080 JLINK_ReadReg(FPS26)  returns 0x00000000 (0000ms, 2119ms total)
TFF04 383:080 JLINK_ReadReg(FPS27)  returns 0x00000000 (0000ms, 2119ms total)
TFF04 383:080 JLINK_ReadReg(FPS28)  returns 0x00000000 (0000ms, 2119ms total)
TFF04 383:080 JLINK_ReadReg(FPS29)  returns 0x00000000 (0000ms, 2119ms total)
TFF04 383:080 JLINK_ReadReg(FPS30)  returns 0x00000000 (0000ms, 2119ms total)
TFF04 383:080 JLINK_ReadReg(FPS31)  returns 0x00000000 (0000ms, 2119ms total)
TFF04 383:080 JLINK_ReadMemU32(0xE0001004, 0x0001 Items, ...) - Data: 00 00 00 00  returns 0x01 (0000ms, 2119ms total)
TFF04 383:080 JLINK_ReadMemEx(0x0FE10000, 0x003C Bytes, ..., Flags = 0x02000000) -- CPU_ReadMem(64 bytes @ 0x0FE10000) -- Updating C cache (64 bytes @ 0x0FE10000) -- Read from C cache (60 bytes @ 0x0FE10000) - Data: 4F F0 80 43 01 22 5A 64 00 23 D3 F8 00 D0 04 23 ...  returns 0x3C (0004ms, 2123ms total)
TFF04 383:832 JLINK_ReadMemEx(0x20000ACD, 0x0002 Bytes, ..., Flags = 0x02000000) -- CPU_ReadMem(64 bytes @ 0x20000AC0) -- Updating C cache (64 bytes @ 0x20000AC0) -- Read from C cache (2 bytes @ 0x20000ACD) - Data: FF FF  returns 0x02 (0003ms, 2126ms total)
TFF04 383:835 JLINK_ReadMemEx(0x20000AC4, 0x0001 Bytes, ..., Flags = 0x02000000) -- Read from C cache (1 bytes @ 0x20000AC4) - Data: FF  returns 0x01 (0000ms, 2126ms total)
TFF04 383:836 JLINK_ReadMemEx(0x20000AC5, 0x0008 Bytes, ..., Flags = 0x02000000) -- Read from C cache (8 bytes @ 0x20000AC5) - Data: FF FF FF FF FF FF FF FF  returns 0x08 (0000ms, 2126ms total)
TFF04 383:838 JLINK_ReadMemEx(0x20000AD8, 0x0004 Bytes, ..., Flags = 0x02000000) -- Read from C cache (4 bytes @ 0x20000AD8) - Data: FF FF FF FF  returns 0x04 (0000ms, 2126ms total)
TFF04 383:838 JLINK_ReadMemEx(0x0000011B, 0x0004 Bytes, ..., Flags = 0x02000000) -- CPU_ReadMem(64 bytes @ 0x00000100) -- Updating C cache (64 bytes @ 0x00000100) -- Read from C cache (4 bytes @ 0x0000011B) - Data: 00 D3 0A 00  returns 0x04 (0002ms, 2128ms total)
TFF04 383:842 JLINK_ReadMemEx(0x0000017F, 0x0004 Bytes, ..., Flags = 0x02000000) -- CPU_ReadMem(128 bytes @ 0x00000140) -- Updating C cache (128 bytes @ 0x00000140) -- Read from C cache (4 bytes @ 0x0000017F) - Data: F0 01 03 18  returns 0x04 (0003ms, 2131ms total)
T1387C 383:876 JLINK_ReadMemEx(0x0FE10000, 0x0002 Bytes, ..., Flags = 0x02000000) -- Read from C cache (2 bytes @ 0x0FE10000) - Data: 4F F0  returns 0x02 (0000ms, 2131ms total)
T1387C 383:876 JLINK_SetBPEx(Addr = 0x00009470, Type = 0xFFFFFFF2)  returns 0x00000001 (0000ms, 2131ms total)
T1387C 383:876 JLINK_Go() -- CPU_ReadMem(4 bytes @ 0xE0001000) -- CPU_WriteMem(4 bytes @ 0xE0002008) -- CPU_WriteMem(4 bytes @ 0xE000200C) -- CPU_WriteMem(4 bytes @ 0xE0002010) -- CPU_WriteMem(4 bytes @ 0xE0002014) -- CPU_WriteMem(4 bytes @ 0xE0002018) -- CPU_WriteMem(4 bytes @ 0xE000201C) -- CPU_WriteMem(4 bytes @ 0xE0001004) (0007ms, 2138ms total)
T1387C 383:984 JLINK_IsHalted()  returns TRUE (0007ms, 2145ms total)
T1387C 383:991 JLINK_Halt()  returns 0x00 (0000ms, 2138ms total)
T1387C 383:991 JLINK_IsHalted()  returns TRUE (0000ms, 2138ms total)
T1387C 383:991 JLINK_IsHalted()  returns TRUE (0000ms, 2138ms total)
T1387C 383:991 JLINK_IsHalted()  returns TRUE (0000ms, 2138ms total)
T1387C 383:991 JLINK_ReadReg(R15 (PC))  returns 0x00009470 (0000ms, 2138ms total)
T1387C 383:991 JLINK_ReadReg(XPSR)  returns 0x61000000 (0000ms, 2138ms total)
T1387C 383:991 JLINK_ClrBPEx(BPHandle = 0x00000001)  returns 0x00 (0000ms, 2138ms total)
T1387C 383:991 JLINK_ReadMemU32(0xE000ED30, 0x0001 Items, ...) -- CPU_ReadMem(4 bytes @ 0xE000ED30) - Data: 02 00 00 00  returns 0x01 (0001ms, 2139ms total)
T1387C 383:992 JLINK_ReadMemU32(0xE0001028, 0x0001 Items, ...) -- CPU_ReadMem(4 bytes @ 0xE0001028) - Data: 00 00 00 00  returns 0x01 (0002ms, 2141ms total)
T1387C 383:994 JLINK_ReadMemU32(0xE0001038, 0x0001 Items, ...) -- CPU_ReadMem(4 bytes @ 0xE0001038) - Data: 00 02 00 00  returns 0x01 (0001ms, 2142ms total)
T1387C 383:995 JLINK_ReadMemU32(0xE0001048, 0x0001 Items, ...) -- CPU_ReadMem(4 bytes @ 0xE0001048) - Data: 00 00 00 00  returns 0x01 (0001ms, 2143ms total)
T1387C 383:996 JLINK_ReadMemU32(0xE0001058, 0x0001 Items, ...) -- CPU_ReadMem(4 bytes @ 0xE0001058) - Data: 00 00 00 00  returns 0x01 (0001ms, 2144ms total)
T1387C 383:997 JLINK_ReadReg(R0)  returns 0x00000000 (0000ms, 2144ms total)
T1387C 383:997 JLINK_ReadReg(R1)  returns 0x2007FC00 (0000ms, 2144ms total)
T1387C 383:997 JLINK_ReadReg(R2)  returns 0x00069358 (0000ms, 2144ms total)
T1387C 383:997 JLINK_ReadReg(R3)  returns 0x00000000 (0000ms, 2144ms total)
T1387C 383:997 JLINK_ReadReg(R4)  returns 0x00000000 (0000ms, 2144ms total)
T1387C 383:997 JLINK_ReadReg(R5)  returns 0x00000000 (0000ms, 2144ms total)
T1387C 383:997 JLINK_ReadReg(R6)  returns 0x00000000 (0000ms, 2144ms total)
T1387C 383:997 JLINK_ReadReg(R7)  returns 0x00000000 (0000ms, 2144ms total)
T1387C 383:997 JLINK_ReadReg(R8)  returns 0x00000000 (0000ms, 2144ms total)
T1387C 383:997 JLINK_ReadReg(R9)  returns 0x00000000 (0000ms, 2144ms total)
T1387C 383:997 JLINK_ReadReg(R10)  returns 0x00000000 (0000ms, 2144ms total)
T1387C 383:997 JLINK_ReadReg(R11)  returns 0x00000000 (0000ms, 2144ms total)
T1387C 383:997 JLINK_ReadReg(R12)  returns 0x0000D241 (0000ms, 2144ms total)
T1387C 383:997 JLINK_ReadReg(R13 (SP))  returns 0x20002180 (0000ms, 2144ms total)
T1387C 383:997 JLINK_ReadReg(R14)  returns 0x00009BA3 (0000ms, 2144ms total)
T1387C 383:997 JLINK_ReadReg(R15 (PC))  returns 0x00009470 (0000ms, 2144ms total)
T1387C 383:997 JLINK_ReadReg(XPSR)  returns 0x61000000 (0000ms, 2144ms total)
T1387C 383:997 JLINK_ReadReg(MSP)  returns 0x20016878 (0000ms, 2144ms total)
T1387C 383:997 JLINK_ReadReg(PSP)  returns 0x20002180 (0000ms, 2144ms total)
T1387C 383:997 JLINK_ReadReg(CFBP)  returns 0x06000000 (0000ms, 2144ms total)
T1387C 383:997 JLINK_ReadReg(FPSCR)  returns 0x03000000 (0013ms, 2157ms total)
T1387C 384:010 JLINK_ReadReg(FPS0)  returns 0x00000000 (0000ms, 2157ms total)
T1387C 384:010 JLINK_ReadReg(FPS1)  returns 0x00000000 (0000ms, 2157ms total)
T1387C 384:010 JLINK_ReadReg(FPS2)  returns 0x00000000 (0000ms, 2157ms total)
T1387C 384:010 JLINK_ReadReg(FPS3)  returns 0x00000000 (0000ms, 2157ms total)
T1387C 384:010 JLINK_ReadReg(FPS4)  returns 0x00000000 (0000ms, 2157ms total)
T1387C 384:010 JLINK_ReadReg(FPS5)  returns 0x00000000 (0000ms, 2157ms total)
T1387C 384:010 JLINK_ReadReg(FPS6)  returns 0x00000000 (0000ms, 2157ms total)
T1387C 384:010 JLINK_ReadReg(FPS7)  returns 0x00000000 (0000ms, 2157ms total)
T1387C 384:010 JLINK_ReadReg(FPS8)  returns 0x00000000 (0000ms, 2157ms total)
T1387C 384:010 JLINK_ReadReg(FPS9)  returns 0x00000000 (0000ms, 2157ms total)
T1387C 384:010 JLINK_ReadReg(FPS10)  returns 0x00000000 (0000ms, 2157ms total)
T1387C 384:010 JLINK_ReadReg(FPS11)  returns 0x00000000 (0000ms, 2157ms total)
T1387C 384:010 JLINK_ReadReg(FPS12)  returns 0x00000000 (0000ms, 2157ms total)
T1387C 384:010 JLINK_ReadReg(FPS13)  returns 0x00000000 (0000ms, 2157ms total)
T1387C 384:010 JLINK_ReadReg(FPS14)  returns 0x00000000 (0000ms, 2157ms total)
T1387C 384:010 JLINK_ReadReg(FPS15)  returns 0x00000000 (0000ms, 2157ms total)
T1387C 384:010 JLINK_ReadReg(FPS16)  returns 0x00000000 (0000ms, 2157ms total)
T1387C 384:010 JLINK_ReadReg(FPS17)  returns 0x00000000 (0000ms, 2157ms total)
T1387C 384:010 JLINK_ReadReg(FPS18)  returns 0x00000000 (0000ms, 2157ms total)
T1387C 384:010 JLINK_ReadReg(FPS19)  returns 0x00000000 (0000ms, 2157ms total)
T1387C 384:010 JLINK_ReadReg(FPS20)  returns 0x00000000 (0000ms, 2157ms total)
T1387C 384:010 JLINK_ReadReg(FPS21)  returns 0x00000000 (0000ms, 2157ms total)
T1387C 384:010 JLINK_ReadReg(FPS22)  returns 0x00000000 (0000ms, 2157ms total)
T1387C 384:010 JLINK_ReadReg(FPS23)  returns 0x00000000 (0000ms, 2157ms total)
T1387C 384:010 JLINK_ReadReg(FPS24)  returns 0x00000000 (0000ms, 2157ms total)
T1387C 384:010 JLINK_ReadReg(FPS25)  returns 0x00000000 (0000ms, 2157ms total)
T1387C 384:010 JLINK_ReadReg(FPS26)  returns 0x00000000 (0000ms, 2157ms total)
T1387C 384:010 JLINK_ReadReg(FPS27)  returns 0x00000000 (0000ms, 2157ms total)
T1387C 384:010 JLINK_ReadReg(FPS28)  returns 0x00000000 (0000ms, 2157ms total)
T1387C 384:010 JLINK_ReadReg(FPS29)  returns 0x00000000 (0000ms, 2157ms total)
T1387C 384:010 JLINK_ReadReg(FPS30)  returns 0x00000000 (0000ms, 2157ms total)
T1387C 384:010 JLINK_ReadReg(FPS31)  returns 0x00000000 (0000ms, 2157ms total)
TFF04 384:010 JLINK_ReadMemEx(0x20000AF0, 0x0004 Bytes, ..., Flags = 0x02000000) -- CPU_ReadMem(64 bytes @ 0x20000AC0) -- Updating C cache (64 bytes @ 0x20000AC0) -- Read from C cache (4 bytes @ 0x20000AF0) - Data: C0 8C FB 02  returns 0x04 (0003ms, 2160ms total)
TFF04 384:013 JLINK_ReadMemEx(0x20000B14, 0x0004 Bytes, ..., Flags = 0x02000000) -- CPU_ReadMem(64 bytes @ 0x20000B00) -- Updating C cache (64 bytes @ 0x20000B00) -- Read from C cache (4 bytes @ 0x20000B14) - Data: 0C 04 00 20  returns 0x04 (0001ms, 2161ms total)
TFF04 384:014 JLINK_ReadMemEx(0x20000B34, 0x0004 Bytes, ..., Flags = 0x02000000) -- Read from C cache (4 bytes @ 0x20000B34) - Data: 50 04 00 20  returns 0x04 (0000ms, 2161ms total)
TFF04 384:014 JLINK_ReadMemEx(0x2000040C, 0x0044 Bytes, ..., Flags = 0x02000000) -- CPU_ReadMem(128 bytes @ 0x20000400) -- Updating C cache (128 bytes @ 0x20000400) -- Read from C cache (68 bytes @ 0x2000040C) - Data: 01 01 00 00 00 00 01 00 00 00 00 00 08 0B 00 20 ...  returns 0x44 (0004ms, 2165ms total)
TFF04 384:018 JLINK_ReadMemEx(0x2000068C, 0x0004 Bytes, ..., Flags = 0x02000000) -- CPU_ReadMem(64 bytes @ 0x20000680) -- Updating C cache (64 bytes @ 0x20000680) -- Read from C cache (4 bytes @ 0x2000068C) - Data: A9 AB 00 00  returns 0x04 (0002ms, 2167ms total)
TFF04 384:020 JLINK_ReadMemEx(0x20000450, 0x0044 Bytes, ..., Flags = 0x02000000) -- CPU_ReadMem(64 bytes @ 0x20000480) -- Updating C cache (64 bytes @ 0x20000480) -- Read from C cache (68 bytes @ 0x20000450) - Data: 01 83 00 00 0C 00 01 00 00 00 00 00 88 03 00 20 ...  returns 0x44 (0003ms, 2170ms total)
TFF04 384:023 JLINK_ReadMemEx(0x2000098C, 0x0004 Bytes, ..., Flags = 0x02000000) -- CPU_ReadMem(64 bytes @ 0x20000980) -- Updating C cache (64 bytes @ 0x20000980) -- Read from C cache (4 bytes @ 0x2000098C) - Data: 00 00 00 00  returns 0x04 (0001ms, 2171ms total)
TFF04 384:025 JLINK_ReadMemEx(0x20000AF4, 0x0001 Bytes, ..., Flags = 0x02000000) -- Read from C cache (1 bytes @ 0x20000AF4) - Data: 02  returns 0x01 (0000ms, 2171ms total)
TFF04 384:025 JLINK_ReadMemEx(0x20000B6C, 0x0004 Bytes, ..., Flags = 0x02000000) -- CPU_ReadMem(64 bytes @ 0x20000B40) -- Updating C cache (64 bytes @ 0x20000B40) -- Read from C cache (4 bytes @ 0x20000B6C) - Data: 00 00 00 00  returns 0x04 (0002ms, 2173ms total)
TFF04 384:027 JLINK_ReadMemEx(0x20000B74, 0x0004 Bytes, ..., Flags = 0x02000000) -- Read from C cache (4 bytes @ 0x20000B74) - Data: 00 00 00 00  returns 0x04 (0000ms, 2173ms total)
TFF04 384:030 JLINK_ReadMemU32(0xE0001004, 0x0001 Items, ...) -- CPU_ReadMem(4 bytes @ 0xE0001004) - Data: 93 D7 01 00  returns 0x01 (0001ms, 2174ms total)
T1387C 390:374 JLINK_ReadMemEx(0x00009470, 0x003C Bytes, ..., Flags = 0x02000000) -- CPU_ReadMem(128 bytes @ 0x00009440) -- Updating C cache (128 bytes @ 0x00009440) -- Read from C cache (60 bytes @ 0x00009470) - Data: 08 B5 4E 48 4E 49 08 60 08 46 00 68 D0 F8 80 01 ...  returns 0x3C (0005ms, 2179ms total)
T1387C 390:379 JLINK_ReadMemEx(0x00009470, 0x0002 Bytes, ..., Flags = 0x02000000) -- Read from C cache (2 bytes @ 0x00009470) - Data: 08 B5  returns 0x02 (0000ms, 2179ms total)
T1387C 390:379 JLINK_Step() -- Read from C cache (2 bytes @ 0x00009470) -- CPU_ReadMem(4 bytes @ 0xE000ED18) -- CPU_WriteMem(4 bytes @ 0xE000ED18) -- CPU_ReadMem(4 bytes @ 0xE000ED18) -- CPU_WriteMem(4 bytes @ 0xE000ED18) -- CPU_WriteMem(8 bytes @ 0x20002178) -- Simulated  returns 0x00 (0003ms, 2182ms total)
T1387C 390:382 JLINK_ReadReg(R15 (PC))  returns 0x00009472 (0000ms, 2182ms total)
T1387C 390:382 JLINK_ReadReg(XPSR)  returns 0x61000000 (0000ms, 2182ms total)
T1387C 390:382 JLINK_ReadReg(R0)  returns 0x00000000 (0000ms, 2182ms total)
T1387C 390:382 JLINK_ReadReg(R1)  returns 0x2007FC00 (0000ms, 2182ms total)
T1387C 390:382 JLINK_ReadReg(R2)  returns 0x00069358 (0000ms, 2182ms total)
T1387C 390:382 JLINK_ReadReg(R3)  returns 0x00000000 (0000ms, 2182ms total)
T1387C 390:382 JLINK_ReadReg(R4)  returns 0x00000000 (0000ms, 2182ms total)
T1387C 390:382 JLINK_ReadReg(R5)  returns 0x00000000 (0000ms, 2182ms total)
T1387C 390:382 JLINK_ReadReg(R6)  returns 0x00000000 (0000ms, 2182ms total)
T1387C 390:382 JLINK_ReadReg(R7)  returns 0x00000000 (0000ms, 2182ms total)
T1387C 390:382 JLINK_ReadReg(R8)  returns 0x00000000 (0000ms, 2182ms total)
T1387C 390:382 JLINK_ReadReg(R9)  returns 0x00000000 (0000ms, 2182ms total)
T1387C 390:382 JLINK_ReadReg(R10)  returns 0x00000000 (0000ms, 2182ms total)
T1387C 390:382 JLINK_ReadReg(R11)  returns 0x00000000 (0000ms, 2182ms total)
T1387C 390:383 JLINK_ReadReg(R12)  returns 0x0000D241 (0000ms, 2182ms total)
T1387C 390:383 JLINK_ReadReg(R13 (SP))  returns 0x20002178 (0000ms, 2182ms total)
T1387C 390:383 JLINK_ReadReg(R14)  returns 0x00009BA3 (0000ms, 2182ms total)
T1387C 390:383 JLINK_ReadReg(R15 (PC))  returns 0x00009472 (0000ms, 2182ms total)
T1387C 390:383 JLINK_ReadReg(XPSR)  returns 0x61000000 (0000ms, 2182ms total)
T1387C 390:383 JLINK_ReadReg(MSP)  returns 0x20016878 (0000ms, 2182ms total)
T1387C 390:383 JLINK_ReadReg(PSP)  returns 0x20002178 (0000ms, 2182ms total)
T1387C 390:383 JLINK_ReadReg(CFBP)  returns 0x06000000 (0000ms, 2182ms total)
T1387C 390:383 JLINK_ReadReg(FPSCR)  returns 0x03000000 (0000ms, 2182ms total)
T1387C 390:383 JLINK_ReadReg(FPS0)  returns 0x00000000 (0000ms, 2182ms total)
T1387C 390:383 JLINK_ReadReg(FPS1)  returns 0x00000000 (0000ms, 2182ms total)
T1387C 390:383 JLINK_ReadReg(FPS2)  returns 0x00000000 (0000ms, 2182ms total)
T1387C 390:383 JLINK_ReadReg(FPS3)  returns 0x00000000 (0000ms, 2182ms total)
T1387C 390:383 JLINK_ReadReg(FPS4)  returns 0x00000000 (0000ms, 2182ms total)
T1387C 390:383 JLINK_ReadReg(FPS5)  returns 0x00000000 (0000ms, 2182ms total)
T1387C 390:383 JLINK_ReadReg(FPS6)  returns 0x00000000 (0000ms, 2182ms total)
T1387C 390:383 JLINK_ReadReg(FPS7)  returns 0x00000000 (0000ms, 2182ms total)
T1387C 390:383 JLINK_ReadReg(FPS8)  returns 0x00000000 (0000ms, 2182ms total)
T1387C 390:383 JLINK_ReadReg(FPS9)  returns 0x00000000 (0000ms, 2182ms total)
T1387C 390:383 JLINK_ReadReg(FPS10)  returns 0x00000000 (0000ms, 2182ms total)
T1387C 390:383 JLINK_ReadReg(FPS11)  returns 0x00000000 (0000ms, 2182ms total)
T1387C 390:383 JLINK_ReadReg(FPS12)  returns 0x00000000 (0000ms, 2182ms total)
T1387C 390:383 JLINK_ReadReg(FPS13)  returns 0x00000000 (0000ms, 2182ms total)
T1387C 390:383 JLINK_ReadReg(FPS14)  returns 0x00000000 (0000ms, 2182ms total)
T1387C 390:383 JLINK_ReadReg(FPS15)  returns 0x00000000 (0000ms, 2182ms total)
T1387C 390:383 JLINK_ReadReg(FPS16)  returns 0x00000000 (0000ms, 2182ms total)
T1387C 390:383 JLINK_ReadReg(FPS17)  returns 0x00000000 (0000ms, 2182ms total)
T1387C 390:383 JLINK_ReadReg(FPS18)  returns 0x00000000 (0000ms, 2182ms total)
T1387C 390:383 JLINK_ReadReg(FPS19)  returns 0x00000000 (0000ms, 2182ms total)
T1387C 390:383 JLINK_ReadReg(FPS20)  returns 0x00000000 (0000ms, 2182ms total)
T1387C 390:383 JLINK_ReadReg(FPS21)  returns 0x00000000 (0000ms, 2182ms total)
T1387C 390:383 JLINK_ReadReg(FPS22)  returns 0x00000000 (0000ms, 2182ms total)
T1387C 390:383 JLINK_ReadReg(FPS23)  returns 0x00000000 (0000ms, 2182ms total)
T1387C 390:383 JLINK_ReadReg(FPS24)  returns 0x00000000 (0000ms, 2182ms total)
T1387C 390:383 JLINK_ReadReg(FPS25)  returns 0x00000000 (0000ms, 2182ms total)
T1387C 390:383 JLINK_ReadReg(FPS26)  returns 0x00000000 (0000ms, 2182ms total)
T1387C 390:383 JLINK_ReadReg(FPS27)  returns 0x00000000 (0000ms, 2182ms total)
T1387C 390:383 JLINK_ReadReg(FPS28)  returns 0x00000000 (0000ms, 2182ms total)
T1387C 390:383 JLINK_ReadReg(FPS29)  returns 0x00000000 (0000ms, 2182ms total)
T1387C 390:383 JLINK_ReadReg(FPS30)  returns 0x00000000 (0000ms, 2182ms total)
T1387C 390:383 JLINK_ReadReg(FPS31)  returns 0x00000000 (0000ms, 2182ms total)
TFF04 390:383 JLINK_ReadMemEx(0x20000B14, 0x0004 Bytes, ..., Flags = 0x02000000) -- Read from C cache (4 bytes @ 0x20000B14) - Data: 0C 04 00 20  returns 0x04 (0000ms, 2182ms total)
TFF04 390:383 JLINK_ReadMemEx(0x20000B34, 0x0004 Bytes, ..., Flags = 0x02000000) -- Read from C cache (4 bytes @ 0x20000B34) - Data: 50 04 00 20  returns 0x04 (0000ms, 2182ms total)
TFF04 390:383 JLINK_ReadMemEx(0x2000040C, 0x0044 Bytes, ..., Flags = 0x02000000) -- Read from C cache (68 bytes @ 0x2000040C) - Data: 01 01 00 00 00 00 01 00 00 00 00 00 08 0B 00 20 ...  returns 0x44 (0000ms, 2182ms total)
TFF04 390:383 JLINK_ReadMemEx(0x2000068C, 0x0004 Bytes, ..., Flags = 0x02000000) -- Read from C cache (4 bytes @ 0x2000068C) - Data: A9 AB 00 00  returns 0x04 (0000ms, 2182ms total)
TFF04 390:383 JLINK_ReadMemEx(0x20000450, 0x0044 Bytes, ..., Flags = 0x02000000) -- Read from C cache (68 bytes @ 0x20000450) - Data: 01 83 00 00 0C 00 01 00 00 00 00 00 88 03 00 20 ...  returns 0x44 (0001ms, 2183ms total)
TFF04 390:384 JLINK_ReadMemEx(0x2000098C, 0x0004 Bytes, ..., Flags = 0x02000000) -- Read from C cache (4 bytes @ 0x2000098C) - Data: 00 00 00 00  returns 0x04 (0000ms, 2183ms total)
TFF04 390:384 JLINK_ReadMemEx(0x20000AF4, 0x0001 Bytes, ..., Flags = 0x02000000) -- Read from C cache (1 bytes @ 0x20000AF4) - Data: 02  returns 0x01 (0000ms, 2183ms total)
TFF04 390:384 JLINK_ReadMemEx(0x20000B6C, 0x0004 Bytes, ..., Flags = 0x02000000) -- Read from C cache (4 bytes @ 0x20000B6C) - Data: 00 00 00 00  returns 0x04 (0000ms, 2183ms total)
TFF04 390:384 JLINK_ReadMemEx(0x20000B74, 0x0004 Bytes, ..., Flags = 0x02000000) -- Read from C cache (4 bytes @ 0x20000B74) - Data: 00 00 00 00  returns 0x04 (0000ms, 2183ms total)
TFF04 390:384 JLINK_ReadMemU32(0xE0001004, 0x0001 Items, ...) - Data: 96 D7 01 00  returns 0x01 (0000ms, 2183ms total)
TFF04 390:384 JLINK_ReadMemEx(0x00009472, 0x0002 Bytes, ..., Flags = 0x02000000) -- Read from C cache (2 bytes @ 0x00009472) - Data: 4E 48  returns 0x02 (0000ms, 2183ms total)
TFF04 390:384 JLINK_ReadMemEx(0x00009474, 0x003C Bytes, ..., Flags = 0x02000000) -- Read from C cache (60 bytes @ 0x00009474) - Data: 4E 49 08 60 08 46 00 68 D0 F8 80 01 45 F6 0E 01 ...  returns 0x3C (0000ms, 2183ms total)
T1387C 391:227 JLINK_ReadMemEx(0x00009472, 0x0002 Bytes, ..., Flags = 0x02000000) -- Read from C cache (2 bytes @ 0x00009472) - Data: 4E 48  returns 0x02 (0000ms, 2183ms total)
T1387C 391:227 JLINK_Step() -- Read from C cache (2 bytes @ 0x00009472) -- CPU_ReadMem(64 bytes @ 0x00009580) -- Updating C cache (64 bytes @ 0x00009580) -- Read from C cache (4 bytes @ 0x000095AC) -- Simulated  returns 0x00 (0003ms, 2186ms total)
T1387C 391:230 JLINK_ReadReg(R15 (PC))  returns 0x00009474 (0000ms, 2186ms total)
T1387C 391:230 JLINK_ReadReg(XPSR)  returns 0x61000000 (0000ms, 2186ms total)
T1387C 391:230 JLINK_Step() -- Read from C cache (2 bytes @ 0x00009474) -- Read from C cache (4 bytes @ 0x000095B0) -- Simulated  returns 0x00 (0000ms, 2186ms total)
T1387C 391:230 JLINK_ReadReg(R15 (PC))  returns 0x00009476 (0000ms, 2186ms total)
T1387C 391:230 JLINK_ReadReg(XPSR)  returns 0x61000000 (0000ms, 2186ms total)
T1387C 391:230 JLINK_Step() -- Read from C cache (2 bytes @ 0x00009476) -- CPU_WriteMem(4 bytes @ 0x20000AD8) -- Simulated  returns 0x00 (0001ms, 2187ms total)
T1387C 391:231 JLINK_ReadReg(R15 (PC))  returns 0x00009478 (0000ms, 2187ms total)
T1387C 391:231 JLINK_ReadReg(XPSR)  returns 0x61000000 (0000ms, 2187ms total)
T1387C 391:231 JLINK_ReadReg(R0)  returns 0x400E4000 (0000ms, 2187ms total)
T1387C 391:231 JLINK_ReadReg(R1)  returns 0x20000AD8 (0000ms, 2187ms total)
T1387C 391:231 JLINK_ReadReg(R2)  returns 0x00069358 (0000ms, 2187ms total)
T1387C 391:231 JLINK_ReadReg(R3)  returns 0x00000000 (0000ms, 2187ms total)
T1387C 391:231 JLINK_ReadReg(R4)  returns 0x00000000 (0000ms, 2187ms total)
T1387C 391:231 JLINK_ReadReg(R5)  returns 0x00000000 (0000ms, 2187ms total)
T1387C 391:231 JLINK_ReadReg(R6)  returns 0x00000000 (0000ms, 2187ms total)
T1387C 391:231 JLINK_ReadReg(R7)  returns 0x00000000 (0000ms, 2187ms total)
T1387C 391:231 JLINK_ReadReg(R8)  returns 0x00000000 (0000ms, 2187ms total)
T1387C 391:231 JLINK_ReadReg(R9)  returns 0x00000000 (0000ms, 2187ms total)
T1387C 391:231 JLINK_ReadReg(R10)  returns 0x00000000 (0000ms, 2187ms total)
T1387C 391:231 JLINK_ReadReg(R11)  returns 0x00000000 (0000ms, 2187ms total)
T1387C 391:231 JLINK_ReadReg(R12)  returns 0x0000D241 (0000ms, 2187ms total)
T1387C 391:231 JLINK_ReadReg(R13 (SP))  returns 0x20002178 (0000ms, 2187ms total)
T1387C 391:231 JLINK_ReadReg(R14)  returns 0x00009BA3 (0000ms, 2187ms total)
T1387C 391:231 JLINK_ReadReg(R15 (PC))  returns 0x00009478 (0000ms, 2187ms total)
T1387C 391:231 JLINK_ReadReg(XPSR)  returns 0x61000000 (0000ms, 2187ms total)
T1387C 391:231 JLINK_ReadReg(MSP)  returns 0x20016878 (0000ms, 2187ms total)
T1387C 391:231 JLINK_ReadReg(PSP)  returns 0x20002178 (0000ms, 2187ms total)
T1387C 391:231 JLINK_ReadReg(CFBP)  returns 0x06000000 (0000ms, 2187ms total)
T1387C 391:231 JLINK_ReadReg(FPSCR)  returns 0x03000000 (0000ms, 2187ms total)
T1387C 391:231 JLINK_ReadReg(FPS0)  returns 0x00000000 (0000ms, 2187ms total)
T1387C 391:231 JLINK_ReadReg(FPS1)  returns 0x00000000 (0000ms, 2187ms total)
T1387C 391:231 JLINK_ReadReg(FPS2)  returns 0x00000000 (0000ms, 2187ms total)
T1387C 391:231 JLINK_ReadReg(FPS3)  returns 0x00000000 (0000ms, 2187ms total)
T1387C 391:231 JLINK_ReadReg(FPS4)  returns 0x00000000 (0000ms, 2187ms total)
T1387C 391:231 JLINK_ReadReg(FPS5)  returns 0x00000000 (0000ms, 2187ms total)
T1387C 391:231 JLINK_ReadReg(FPS6)  returns 0x00000000 (0000ms, 2187ms total)
T1387C 391:231 JLINK_ReadReg(FPS7)  returns 0x00000000 (0000ms, 2187ms total)
T1387C 391:231 JLINK_ReadReg(FPS8)  returns 0x00000000 (0000ms, 2187ms total)
T1387C 391:231 JLINK_ReadReg(FPS9)  returns 0x00000000 (0000ms, 2187ms total)
T1387C 391:231 JLINK_ReadReg(FPS10)  returns 0x00000000 (0000ms, 2187ms total)
T1387C 391:231 JLINK_ReadReg(FPS11)  returns 0x00000000 (0000ms, 2187ms total)
T1387C 391:231 JLINK_ReadReg(FPS12)  returns 0x00000000 (0000ms, 2187ms total)
T1387C 391:231 JLINK_ReadReg(FPS13)  returns 0x00000000 (0000ms, 2187ms total)
T1387C 391:231 JLINK_ReadReg(FPS14)  returns 0x00000000 (0000ms, 2187ms total)
T1387C 391:231 JLINK_ReadReg(FPS15)  returns 0x00000000 (0000ms, 2187ms total)
T1387C 391:231 JLINK_ReadReg(FPS16)  returns 0x00000000 (0000ms, 2187ms total)
T1387C 391:231 JLINK_ReadReg(FPS17)  returns 0x00000000 (0001ms, 2188ms total)
T1387C 391:232 JLINK_ReadReg(FPS18)  returns 0x00000000 (0000ms, 2188ms total)
T1387C 391:232 JLINK_ReadReg(FPS19)  returns 0x00000000 (0000ms, 2188ms total)
T1387C 391:232 JLINK_ReadReg(FPS20)  returns 0x00000000 (0000ms, 2188ms total)
T1387C 391:232 JLINK_ReadReg(FPS21)  returns 0x00000000 (0000ms, 2188ms total)
T1387C 391:232 JLINK_ReadReg(FPS22)  returns 0x00000000 (0000ms, 2188ms total)
T1387C 391:232 JLINK_ReadReg(FPS23)  returns 0x00000000 (0000ms, 2188ms total)
T1387C 391:232 JLINK_ReadReg(FPS24)  returns 0x00000000 (0000ms, 2188ms total)
T1387C 391:232 JLINK_ReadReg(FPS25)  returns 0x00000000 (0000ms, 2188ms total)
T1387C 391:232 JLINK_ReadReg(FPS26)  returns 0x00000000 (0000ms, 2188ms total)
T1387C 391:232 JLINK_ReadReg(FPS27)  returns 0x00000000 (0000ms, 2188ms total)
T1387C 391:232 JLINK_ReadReg(FPS28)  returns 0x00000000 (0000ms, 2188ms total)
T1387C 391:232 JLINK_ReadReg(FPS29)  returns 0x00000000 (0000ms, 2188ms total)
T1387C 391:232 JLINK_ReadReg(FPS30)  returns 0x00000000 (0000ms, 2188ms total)
T1387C 391:232 JLINK_ReadReg(FPS31)  returns 0x00000000 (0000ms, 2188ms total)
TFF04 391:232 JLINK_ReadMemEx(0x20000B14, 0x0004 Bytes, ..., Flags = 0x02000000) -- Read from C cache (4 bytes @ 0x20000B14) - Data: 0C 04 00 20  returns 0x04 (0000ms, 2188ms total)
TFF04 391:232 JLINK_ReadMemEx(0x20000B34, 0x0004 Bytes, ..., Flags = 0x02000000) -- Read from C cache (4 bytes @ 0x20000B34) - Data: 50 04 00 20  returns 0x04 (0000ms, 2188ms total)
TFF04 391:232 JLINK_ReadMemEx(0x2000040C, 0x0044 Bytes, ..., Flags = 0x02000000) -- Read from C cache (68 bytes @ 0x2000040C) - Data: 01 01 00 00 00 00 01 00 00 00 00 00 08 0B 00 20 ...  returns 0x44 (0000ms, 2188ms total)
TFF04 391:232 JLINK_ReadMemEx(0x2000068C, 0x0004 Bytes, ..., Flags = 0x02000000) -- Read from C cache (4 bytes @ 0x2000068C) - Data: A9 AB 00 00  returns 0x04 (0000ms, 2188ms total)
TFF04 391:232 JLINK_ReadMemEx(0x20000450, 0x0044 Bytes, ..., Flags = 0x02000000) -- Read from C cache (68 bytes @ 0x20000450) - Data: 01 83 00 00 0C 00 01 00 00 00 00 00 88 03 00 20 ...  returns 0x44 (0000ms, 2188ms total)
TFF04 391:232 JLINK_ReadMemEx(0x2000098C, 0x0004 Bytes, ..., Flags = 0x02000000) -- Read from C cache (4 bytes @ 0x2000098C) - Data: 00 00 00 00  returns 0x04 (0000ms, 2188ms total)
TFF04 391:232 JLINK_ReadMemEx(0x20000AF4, 0x0001 Bytes, ..., Flags = 0x02000000) -- CPU_ReadMem(64 bytes @ 0x20000AC0) -- Updating C cache (64 bytes @ 0x20000AC0) -- Read from C cache (1 bytes @ 0x20000AF4) - Data: 02  returns 0x01 (0002ms, 2190ms total)
TFF04 391:234 JLINK_ReadMemEx(0x20000B6C, 0x0004 Bytes, ..., Flags = 0x02000000) -- Read from C cache (4 bytes @ 0x20000B6C) - Data: 00 00 00 00  returns 0x04 (0000ms, 2190ms total)
TFF04 391:234 JLINK_ReadMemEx(0x20000B74, 0x0004 Bytes, ..., Flags = 0x02000000) -- Read from C cache (4 bytes @ 0x20000B74) - Data: 00 00 00 00  returns 0x04 (0000ms, 2190ms total)
TFF04 391:234 JLINK_ReadMemU32(0xE0001004, 0x0001 Items, ...) - Data: 9C D7 01 00  returns 0x01 (0000ms, 2190ms total)
TFF04 391:234 JLINK_ReadMemEx(0x00009478, 0x003C Bytes, ..., Flags = 0x02000000) -- Read from C cache (60 bytes @ 0x00009478) - Data: 08 46 00 68 D0 F8 80 01 45 F6 0E 01 08 43 4A 49 ...  returns 0x3C (0000ms, 2190ms total)
T1387C 391:813 JLINK_ReadMemEx(0x00009478, 0x0002 Bytes, ..., Flags = 0x02000000) -- Read from C cache (2 bytes @ 0x00009478) - Data: 08 46  returns 0x02 (0000ms, 2190ms total)
T1387C 391:813 JLINK_Step() -- Read from C cache (2 bytes @ 0x00009478) -- Simulated  returns 0x00 (0002ms, 2192ms total)
T1387C 391:815 JLINK_ReadReg(R15 (PC))  returns 0x0000947A (0000ms, 2192ms total)
T1387C 391:815 JLINK_ReadReg(XPSR)  returns 0x61000000 (0000ms, 2192ms total)
T1387C 391:815 JLINK_Step() -- Read from C cache (2 bytes @ 0x0000947A) -- Read from C cache (4 bytes @ 0x20000AD8) -- Simulated  returns 0x00 (0000ms, 2192ms total)
T1387C 391:815 JLINK_ReadReg(R15 (PC))  returns 0x0000947C (0000ms, 2192ms total)
T1387C 391:815 JLINK_ReadReg(XPSR)  returns 0x61000000 (0000ms, 2192ms total)
T1387C 391:815 JLINK_Step() -- Read from C cache (2 bytes @ 0x0000947C) -- Read from C cache (2 bytes @ 0x0000947E) -- Not simulated -- CPU_WriteMem(4 bytes @ 0xE0002008) -- CPU_WriteMem(4 bytes @ 0xE0001004)  returns 0x00 (0011ms, 2203ms total)
T1387C 391:826 JLINK_ReadReg(R15 (PC))  returns 0x00009480 (0000ms, 2203ms total)
T1387C 391:826 JLINK_ReadReg(XPSR)  returns 0x61000000 (0000ms, 2203ms total)
T1387C 391:826 JLINK_ReadMemEx(0x0000947E, 0x0002 Bytes, ..., Flags = 0x02000000) -- CPU_ReadMem(64 bytes @ 0x00009440) -- Updating C cache (64 bytes @ 0x00009440) -- Read from C cache (2 bytes @ 0x0000947E) - Data: 80 01  returns 0x02 (0002ms, 2205ms total)
T1387C 391:828 JLINK_ReadMemEx(0x00009480, 0x003C Bytes, ..., Flags = 0x02000000) -- CPU_ReadMem(64 bytes @ 0x00009480) -- Updating C cache (64 bytes @ 0x00009480) -- Read from C cache (60 bytes @ 0x00009480) - Data: 45 F6 0E 01 08 43 4A 49 09 68 C1 F8 80 01 00 BF ...  returns 0x3C (0003ms, 2208ms total)
T1387C 391:831 JLINK_ReadMemEx(0x00009480, 0x0002 Bytes, ..., Flags = 0x02000000) -- Read from C cache (2 bytes @ 0x00009480) - Data: 45 F6  returns 0x02 (0000ms, 2208ms total)
T1387C 391:831 JLINK_Step() -- Read from C cache (2 bytes @ 0x00009480) -- CPU_ReadMem(4 bytes @ 0xE0001004) -- Read from C cache (2 bytes @ 0x00009482) -- Simulated  returns 0x00 (0000ms, 2208ms total)
T1387C 391:831 JLINK_ReadReg(R15 (PC))  returns 0x00009484 (0000ms, 2208ms total)
T1387C 391:831 JLINK_ReadReg(XPSR)  returns 0x61000000 (0000ms, 2208ms total)
T1387C 391:831 JLINK_ReadMemEx(0x00009482, 0x0002 Bytes, ..., Flags = 0x02000000) -- Read from C cache (2 bytes @ 0x00009482) - Data: 0E 01  returns 0x02 (0000ms, 2208ms total)
T1387C 391:831 JLINK_ReadMemEx(0x00009484, 0x003C Bytes, ..., Flags = 0x02000000) -- Read from C cache (60 bytes @ 0x00009484) - Data: 08 43 4A 49 09 68 C1 F8 80 01 00 BF 47 48 00 68 ...  returns 0x3C (0000ms, 2208ms total)
T1387C 391:831 JLINK_ReadMemEx(0x00009484, 0x0002 Bytes, ..., Flags = 0x02000000) -- Read from C cache (2 bytes @ 0x00009484) - Data: 08 43  returns 0x02 (0000ms, 2208ms total)
T1387C 391:831 JLINK_ReadMemEx(0x00009484, 0x003C Bytes, ..., Flags = 0x02000000) -- Read from C cache (60 bytes @ 0x00009484) - Data: 08 43 4A 49 09 68 C1 F8 80 01 00 BF 47 48 00 68 ...  returns 0x3C (0001ms, 2209ms total)
T1387C 391:832 JLINK_ReadMemEx(0x00009484, 0x0002 Bytes, ..., Flags = 0x02000000) -- Read from C cache (2 bytes @ 0x00009484) - Data: 08 43  returns 0x02 (0000ms, 2209ms total)
T1387C 391:832 JLINK_ReadMemEx(0x00009486, 0x0002 Bytes, ..., Flags = 0x02000000) -- Read from C cache (2 bytes @ 0x00009486) - Data: 4A 49  returns 0x02 (0000ms, 2209ms total)
T1387C 391:832 JLINK_Step() -- Read from C cache (2 bytes @ 0x00009484) -- Simulated  returns 0x00 (0000ms, 2209ms total)
T1387C 391:832 JLINK_ReadReg(R15 (PC))  returns 0x00009486 (0000ms, 2209ms total)
T1387C 391:832 JLINK_ReadReg(XPSR)  returns 0x21000000 (0000ms, 2209ms total)
T1387C 391:832 JLINK_ReadMemEx(0x00009486, 0x0002 Bytes, ..., Flags = 0x02000000) -- Read from C cache (2 bytes @ 0x00009486) - Data: 4A 49  returns 0x02 (0000ms, 2209ms total)
T1387C 391:832 JLINK_ReadMemEx(0x00009488, 0x003C Bytes, ..., Flags = 0x02000000) -- CPU_ReadMem(64 bytes @ 0x000094C0) -- Updating C cache (64 bytes @ 0x000094C0) -- Read from C cache (60 bytes @ 0x00009488) - Data: 09 68 C1 F8 80 01 00 BF 47 48 00 68 D0 F8 80 01 ...  returns 0x3C (0002ms, 2211ms total)
T1387C 391:834 JLINK_ReadMemEx(0x00009488, 0x0002 Bytes, ..., Flags = 0x02000000) -- Read from C cache (2 bytes @ 0x00009488) - Data: 09 68  returns 0x02 (0000ms, 2211ms total)
T1387C 391:834 JLINK_Step() -- Read from C cache (2 bytes @ 0x00009486) -- CPU_ReadMem(64 bytes @ 0x00009580) -- Updating C cache (64 bytes @ 0x00009580) -- Read from C cache (4 bytes @ 0x000095B0) -- Simulated  returns 0x00 (0002ms, 2213ms total)
T1387C 391:836 JLINK_ReadReg(R15 (PC))  returns 0x00009488 (0000ms, 2213ms total)
T1387C 391:836 JLINK_ReadReg(XPSR)  returns 0x21000000 (0000ms, 2213ms total)
T1387C 391:836 JLINK_ReadMemEx(0x00009488, 0x003C Bytes, ..., Flags = 0x02000000) -- Read from C cache (60 bytes @ 0x00009488) - Data: 09 68 C1 F8 80 01 00 BF 47 48 00 68 D0 F8 80 01 ...  returns 0x3C (0000ms, 2213ms total)
T1387C 391:836 JLINK_ReadMemEx(0x00009488, 0x0002 Bytes, ..., Flags = 0x02000000) -- Read from C cache (2 bytes @ 0x00009488) - Data: 09 68  returns 0x02 (0000ms, 2213ms total)
T1387C 391:836 JLINK_ReadMemEx(0x0000948A, 0x0002 Bytes, ..., Flags = 0x02000000) -- Read from C cache (2 bytes @ 0x0000948A) - Data: C1 F8  returns 0x02 (0000ms, 2213ms total)
T1387C 391:836 JLINK_Step() -- Read from C cache (2 bytes @ 0x00009488) -- CPU_ReadMem(64 bytes @ 0x20000AC0) -- Updating C cache (64 bytes @ 0x20000AC0) -- Read from C cache (4 bytes @ 0x20000AD8) -- Simulated  returns 0x00 (0002ms, 2215ms total)
T1387C 391:838 JLINK_ReadReg(R15 (PC))  returns 0x0000948A (0000ms, 2215ms total)
T1387C 391:838 JLINK_ReadReg(XPSR)  returns 0x21000000 (0000ms, 2215ms total)
T1387C 391:838 JLINK_ReadMemEx(0x0000948A, 0x0002 Bytes, ..., Flags = 0x02000000) -- Read from C cache (2 bytes @ 0x0000948A) - Data: C1 F8  returns 0x02 (0000ms, 2215ms total)
T1387C 391:838 JLINK_ReadMemEx(0x0000948C, 0x003C Bytes, ..., Flags = 0x02000000) -- Read from C cache (60 bytes @ 0x0000948C) - Data: 80 01 00 BF 47 48 00 68 D0 F8 80 01 00 28 F9 D1 ...  returns 0x3C (0000ms, 2215ms total)
T1387C 391:838 JLINK_ReadMemEx(0x0000948C, 0x0002 Bytes, ..., Flags = 0x02000000) -- Read from C cache (2 bytes @ 0x0000948C) - Data: 80 01  returns 0x02 (0000ms, 2215ms total)
T1387C 391:838 JLINK_Step() -- Read from C cache (2 bytes @ 0x0000948A) -- Read from C cache (2 bytes @ 0x0000948C) -- Not simulated -- CPU_WriteMem(4 bytes @ 0xE0001004)  returns 0x00 (0011ms, 2226ms total)
T1387C 391:849 JLINK_ReadReg(R15 (PC))  returns 0x0000948E (0000ms, 2226ms total)
T1387C 391:849 JLINK_ReadReg(XPSR)  returns 0x21000000 (0000ms, 2226ms total)
T1387C 391:849 JLINK_ReadReg(R0)  returns 0x0000580E (0000ms, 2226ms total)
T1387C 391:849 JLINK_ReadReg(R1)  returns 0x400E4000 (0000ms, 2226ms total)
T1387C 391:849 JLINK_ReadReg(R2)  returns 0x00069358 (0000ms, 2226ms total)
T1387C 391:849 JLINK_ReadReg(R3)  returns 0x00000000 (0000ms, 2226ms total)
T1387C 391:849 JLINK_ReadReg(R4)  returns 0x00000000 (0000ms, 2226ms total)
T1387C 391:849 JLINK_ReadReg(R5)  returns 0x00000000 (0000ms, 2226ms total)
T1387C 391:849 JLINK_ReadReg(R6)  returns 0x00000000 (0000ms, 2226ms total)
T1387C 391:849 JLINK_ReadReg(R7)  returns 0x00000000 (0000ms, 2226ms total)
T1387C 391:849 JLINK_ReadReg(R8)  returns 0x00000000 (0000ms, 2226ms total)
T1387C 391:849 JLINK_ReadReg(R9)  returns 0x00000000 (0000ms, 2226ms total)
T1387C 391:849 JLINK_ReadReg(R10)  returns 0x00000000 (0000ms, 2226ms total)
T1387C 391:849 JLINK_ReadReg(R11)  returns 0x00000000 (0000ms, 2226ms total)
T1387C 391:849 JLINK_ReadReg(R12)  returns 0x0000D241 (0000ms, 2226ms total)
T1387C 391:849 JLINK_ReadReg(R13 (SP))  returns 0x20002178 (0000ms, 2226ms total)
T1387C 391:849 JLINK_ReadReg(R14)  returns 0x00009BA3 (0000ms, 2226ms total)
T1387C 391:849 JLINK_ReadReg(R15 (PC))  returns 0x0000948E (0000ms, 2226ms total)
T1387C 391:849 JLINK_ReadReg(XPSR)  returns 0x21000000 (0000ms, 2226ms total)
T1387C 391:849 JLINK_ReadReg(MSP)  returns 0x20016878 (0000ms, 2226ms total)
T1387C 391:849 JLINK_ReadReg(PSP)  returns 0x20002178 (0000ms, 2226ms total)
T1387C 391:849 JLINK_ReadReg(CFBP)  returns 0x06000000 (0000ms, 2226ms total)
T1387C 391:849 JLINK_ReadReg(FPSCR)  returns 0x03000000 (0012ms, 2238ms total)
T1387C 391:861 JLINK_ReadReg(FPS0)  returns 0x00000000 (0000ms, 2238ms total)
T1387C 391:861 JLINK_ReadReg(FPS1)  returns 0x00000000 (0000ms, 2238ms total)
T1387C 391:861 JLINK_ReadReg(FPS2)  returns 0x00000000 (0000ms, 2238ms total)
T1387C 391:861 JLINK_ReadReg(FPS3)  returns 0x00000000 (0000ms, 2238ms total)
T1387C 391:861 JLINK_ReadReg(FPS4)  returns 0x00000000 (0000ms, 2238ms total)
T1387C 391:861 JLINK_ReadReg(FPS5)  returns 0x00000000 (0000ms, 2238ms total)
T1387C 391:861 JLINK_ReadReg(FPS6)  returns 0x00000000 (0000ms, 2238ms total)
T1387C 391:861 JLINK_ReadReg(FPS7)  returns 0x00000000 (0000ms, 2238ms total)
T1387C 391:861 JLINK_ReadReg(FPS8)  returns 0x00000000 (0000ms, 2238ms total)
T1387C 391:861 JLINK_ReadReg(FPS9)  returns 0x00000000 (0000ms, 2238ms total)
T1387C 391:861 JLINK_ReadReg(FPS10)  returns 0x00000000 (0000ms, 2238ms total)
T1387C 391:861 JLINK_ReadReg(FPS11)  returns 0x00000000 (0000ms, 2238ms total)
T1387C 391:861 JLINK_ReadReg(FPS12)  returns 0x00000000 (0000ms, 2238ms total)
T1387C 391:861 JLINK_ReadReg(FPS13)  returns 0x00000000 (0000ms, 2238ms total)
T1387C 391:861 JLINK_ReadReg(FPS14)  returns 0x00000000 (0000ms, 2238ms total)
T1387C 391:861 JLINK_ReadReg(FPS15)  returns 0x00000000 (0000ms, 2238ms total)
T1387C 391:861 JLINK_ReadReg(FPS16)  returns 0x00000000 (0000ms, 2238ms total)
T1387C 391:861 JLINK_ReadReg(FPS17)  returns 0x00000000 (0000ms, 2238ms total)
T1387C 391:861 JLINK_ReadReg(FPS18)  returns 0x00000000 (0000ms, 2238ms total)
T1387C 391:861 JLINK_ReadReg(FPS19)  returns 0x00000000 (0000ms, 2238ms total)
